T48EC 21872:626 SEGGER J-Link V6.30h Log File (0001ms, 21599ms total)
T48EC 21872:626 DLL Compiled: Mar 16 2018 18:02:51 (0001ms, 21599ms total)
T48EC 21872:626 Logging started @ 2018-12-16 01:21 (0001ms, 21599ms total)
T48EC 21872:627 JLINK_SetWarnOutHandler(...) (0000ms, 21599ms total)
T48EC 21872:627 JLINK_OpenEx(...)
Firmware: J-Link ARM-OB STM32 compiled Aug 22 2012 19:52:04
Hardware: V7.00
S/N: 20090928
Feature(s): RDI,FlashDL,FlashBP,JFlash,GDB
TELNET listener socket opened on port 19021WEBSRV 
Starting webserver (0121ms, 21720ms total)
T48EC 21872:627 WEBSRV Webserver running on local port 19080 (0121ms, 21720ms total)
T48EC 21872:627   returns O.K. (0121ms, 21720ms total)
T48EC 21872:748 JLINK_GetEmuCaps()  returns 0x88EA5833 (0000ms, 21720ms total)
T48EC 21872:749 JLINK_TIF_GetAvailable(...) (0000ms, 21720ms total)
T48EC 21872:749 JLINK_SetErrorOutHandler(...) (0000ms, 21720ms total)
T48EC 21872:749 JLINK_ExecCommand("ProjectFile = "D:\CAR_TEST\TEST1\MDK-ARM\JLinkSettings.ini"", ...).   returns 0x00 (0006ms, 21726ms total)
T48EC 21872:763 JLINK_ExecCommand("Device = STM32F427IIHx", ...). Device "STM32F427II" selected.  returns 0x00 (0006ms, 21732ms total)
T48EC 21872:769 JLINK_ExecCommand("DisableConnectionTimeout", ...).   returns 0x01 (0000ms, 21732ms total)
T48EC 21872:769 JLINK_GetHardwareVersion()  returns 0x11170 (0000ms, 21732ms total)
T48EC 21872:769 JLINK_GetDLLVersion()  returns 63008 (0000ms, 21732ms total)
T48EC 21872:769 JLINK_GetFirmwareString(...) (0001ms, 21733ms total)
T48EC 21872:782 JLINK_GetDLLVersion()  returns 63008 (0000ms, 21733ms total)
T48EC 21872:782 JLINK_GetCompileDateTime() (0000ms, 21733ms total)
T48EC 21872:785 JLINK_GetFirmwareString(...) (0000ms, 21733ms total)
T48EC 21872:788 JLINK_GetHardwareVersion()  returns 0x11170 (0000ms, 21733ms total)
T48EC 21872:798 JLINK_TIF_Select(JLINKARM_TIF_SWD)  returns 0x00 (0001ms, 21734ms total)
T48EC 21872:799 JLINK_SetSpeed(5000) (0000ms, 21734ms total)
T48EC 21872:799 JLINK_GetId() >0x10B TIF>Found SW-DP with ID 0x2BA01477 >0x0D TIF> >0x28 TIF> >0x0D TIF> >0x28 TIF> >0x0D TIF> >0x28 TIF> >0x0D TIF> >0x28 TIF> >0x0D TIF> >0x21 TIF> >0x0D TIF> >0x28 TIF> >0x0D TIF> >0x28 TIF> >0x0D TIF> >0x28 TIF> >0x0D TIF> >0x21 TIF> >0x0D TIF> >0x21 TIF> >0x0D TIF> >0x28 TIF> >0x0D TIF> >0x21 TIF> >0x0D TIF> >0x21 TIF> >0x0D TIF> >0x28 TIF> >0x0D TIF> >0x21 TIF> >0x0D TIF> >0x21 TIF> >0x0D TIF> >0x28 TIF> >0x0D TIF> >0x21 TIF> >0x0D TIF> >0x21 TIF> >0x0D TIF>
 >0x28 TIF> >0x0D TIF> >0x21 TIF> >0x0D TIF> >0x21 TIF> >0x0D TIF> >0x28 TIF> >0x0D TIF> >0x21 TIF> >0x0D TIF> >0x21 TIF> >0x0D TIF> >0x28 TIF> >0x0D TIF> >0x21 TIF> >0x0D TIF> >0x21 TIF> >0x10B TIF>Found SW-DP with ID 0x2BA01477 >0x0D TIF> >0x28 TIF> >0x0D TIF> >0x28 TIF> >0x0D TIF> >0x28 TIF> >0x0D TIF> >0x28 TIF> >0x0D TIF> >0x21 TIF> >0x0D TIF> >0x28 TIF>Scanning AP map to find all available APs >0x0D TIF> >0x28 TIF> >0x0D TIF> >0x21 TIF> >0x0D TIF> >0x21 TIF> >0x0D TIF> >0x28 TIF> >0x0D TIF>
 >0x21 TIF> >0x0D TIF> >0x21 TIF>AP[1]: Stopped AP scan as end of AP map has been reachedAP[0]: AHB-AP (IDR: 0x24770011)Iterating through AP map to find AHB-AP to use >0x42 TIF> >0x28 TIF> >0x0D TIF> >0x28 TIF> >0x0D TIF> >0x21 TIF> >0x0D TIF> >0x21 TIF> >0x42 TIF> >0x28 TIF> >0x0D TIF> >0x28 TIF> >0x0D TIF> >0x28 TIF> >0x0D TIF> >0x21 TIF> >0x0D TIF> >0x21 TIF>AP[0]: Core foundAP[0]: AHB-AP ROM base: 0xE00FF000 >0x0D TIF> >0x28 TIF> >0x0D TIF> >0x28 TIF> >0x0D TIF> >0x28 TIF> >0x0D TIF> >0x21 TIF>
 >0x0D TIF> >0x21 TIF>CPUID register: 0x410FC241. Implementer code: 0x41 (ARM)Found Cortex-M4 r0p1, Little endian. -- CPU_ReadMem(4 bytes @ 0xE000EDF0) -- CPU_WriteMem(4 bytes @ 0xE000EDF0) -- CPU_ReadMem(4 bytes @ 0xE0002000)FPUnit: 6 code (BP) slots and 2 literal slots -- CPU_ReadMem(4 bytes @ 0xE000EDFC) -- CPU_WriteMem(4 bytes @ 0xE000EDFC) -- CPU_ReadMem(4 bytes @ 0xE0001000) -- CPU_WriteMem(4 bytes @ 0xE0001000) -- CPU_ReadMem(4 bytes @ 0xE000ED88) -- CPU_WriteMem(4 bytes @ 0xE000ED88)
 -- CPU_ReadMem(4 bytes @ 0xE000ED88) -- CPU_WriteMem(4 bytes @ 0xE000ED88)CoreSight components:ROMTbl[0] @ E00FF000 -- CPU_ReadMem(16 bytes @ 0xE00FF000) -- CPU_ReadMem(16 bytes @ 0xE000EFF0) -- CPU_ReadMem(16 bytes @ 0xE000EFE0)ROMTbl[0][0]: E000E000, CID: B105E00D, PID: 000BB00C SCS-M7 -- CPU_ReadMem(16 bytes @ 0xE0001FF0) -- CPU_ReadMem(16 bytes @ 0xE0001FE0)ROMTbl[0][1]: E0001000, CID: B105E00D, PID: 003BB002 DWT -- CPU_ReadMem(16 bytes @ 0xE0002FF0) -- CPU_ReadMem(16 bytes @ 0xE0002FE0)
ROMTbl[0][2]: E0002000, CID: B105E00D, PID: 002BB003 FPB -- CPU_ReadMem(16 bytes @ 0xE0000FF0) -- CPU_ReadMem(16 bytes @ 0xE0000FE0)ROMTbl[0][3]: E0000000, CID: B105E00D, PID: 003BB001 ITM -- CPU_ReadMem(16 bytes @ 0xE00FF010) -- CPU_ReadMem(16 bytes @ 0xE0040FF0) -- CPU_ReadMem(16 bytes @ 0xE0040FE0)ROMTbl[0][4]: E0040000, CID: B105900D, PID: 000BB9A1 TPIU -- CPU_ReadMem(16 bytes @ 0xE0041FF0) -- CPU_ReadMem(16 bytes @ 0xE0041FE0)ROMTbl[0][5]: E0041000, CID: B105900D, PID: 000BB925 ETM >0x0D TIF>
 >0x21 TIF>  returns 0x2BA01477 (0228ms, 21962ms total)
T48EC 21873:027 JLINK_GetDLLVersion()  returns 63008 (0000ms, 21962ms total)
T48EC 21873:027 JLINK_CORE_GetFound()  returns 0xE0000FF (0000ms, 21962ms total)
T48EC 21873:027 JLINK_GetDebugInfo(0x100 = JLINKARM_ROM_TABLE_ADDR_INDEX) -- Value=0xE00FF000  returns 0x00 (0000ms, 21962ms total)
T48EC 21873:029 JLINK_GetDebugInfo(0x100 = JLINKARM_ROM_TABLE_ADDR_INDEX) -- Value=0xE00FF000  returns 0x00 (0000ms, 21962ms total)
T48EC 21873:029 JLINK_GetDebugInfo(0x101 = JLINKARM_DEBUG_INFO_ETM_ADDR_INDEX) -- Value=0xE0041000  returns 0x00 (0000ms, 21962ms total)
T48EC 21873:029 JLINK_ReadMemEx(0xE0041FD0, 0x0020 Bytes, ..., Flags = 0x02000004) -- CPU_ReadMem(32 bytes @ 0xE0041FD0) - Data: 04 00 00 00 00 00 00 00 00 00 00 00 00 00 00 00 ...  returns 0x20 (0001ms, 21963ms total)
T48EC 21873:030 JLINK_GetDebugInfo(0x102 = JLINKARM_DEBUG_INFO_MTB_ADDR_INDEX) -- Value=0x00000000  returns 0x00 (0000ms, 21963ms total)
T48EC 21873:031 JLINK_GetDebugInfo(0x103 = JLINKARM_DEBUG_INFO_TPIU_ADDR_INDEX) -- Value=0xE0040000  returns 0x00 (0000ms, 21963ms total)
T48EC 21873:031 JLINK_GetDebugInfo(0x104 = JLINKARM_DEBUG_INFO_ITM_ADDR_INDEX) -- Value=0xE0000000  returns 0x00 (0000ms, 21963ms total)
T48EC 21873:031 JLINK_GetDebugInfo(0x105 = JLINKARM_DEBUG_INFO_DWT_ADDR_INDEX) -- Value=0xE0001000  returns 0x00 (0000ms, 21963ms total)
T48EC 21873:031 JLINK_GetDebugInfo(0x106 = JLINKARM_DEBUG_INFO_FPB_ADDR_INDEX) -- Value=0xE0002000  returns 0x00 (0000ms, 21963ms total)
T48EC 21873:031 JLINK_GetDebugInfo(0x107 = JLINKARM_DEBUG_INFO_NVIC_ADDR_INDEX) -- Value=0xE000E000  returns 0x00 (0000ms, 21963ms total)
T48EC 21873:031 JLINK_GetDebugInfo(0x10C = JLINKARM_DEBUG_INFO_DBG_ADDR_INDEX) -- Value=0xE000EDF0  returns 0x00 (0000ms, 21963ms total)
T48EC 21873:031 JLINK_GetDebugInfo(0x01 = Unknown) -- Value=0x00000001  returns 0x00 (0000ms, 21963ms total)
T48EC 21873:031 JLINK_ReadMemU32(0xE000ED00, 0x0001 Items, ...) -- CPU_ReadMem(4 bytes @ 0xE000ED00) - Data: 41 C2 0F 41  returns 0x01 (0001ms, 21964ms total)
T48EC 21873:032 JLINK_GetDebugInfo(0x10F = JLINKARM_DEBUG_INFO_HAS_CORTEX_M_SECURITY_EXT_INDEX) -- Value=0x00000000  returns 0x00 (0000ms, 21964ms total)
T48EC 21873:032 JLINK_SetResetType(JLINKARM_CM3_RESET_TYPE_NORMAL)  returns JLINKARM_CM3_RESET_TYPE_NORMAL (0000ms, 21964ms total)
T48EC 21873:032 JLINK_Reset() -- CPU is running -- CPU_WriteMem(4 bytes @ 0xE000EDF0) -- CPU is running -- CPU_WriteMem(4 bytes @ 0xE000EDFC)Reset: Halt core after reset via DEMCR.VC_CORERESET. >0x35 TIF>Reset: Reset device via AIRCR.SYSRESETREQ. -- CPU is running -- CPU_WriteMem(4 bytes @ 0xE000ED0C) >0x0D TIF> >0x28 TIF> -- CPU_ReadMem(4 bytes @ 0xE000EDF0) -- CPU_ReadMem(4 bytes @ 0xE000EDF0) -- CPU is running -- CPU_WriteMem(4 bytes @ 0xE000EDF0) -- CPU is running
 -- CPU_WriteMem(4 bytes @ 0xE000EDFC) -- CPU_ReadMem(4 bytes @ 0xE000EDF0) -- CPU_WriteMem(4 bytes @ 0xE0002000) -- CPU_ReadMem(4 bytes @ 0xE000EDFC) -- CPU_ReadMem(4 bytes @ 0xE0001000) (0074ms, 22038ms total)
T48EC 21873:106 JLINK_Halt()  returns 0x00 (0000ms, 22038ms total)
T48EC 21873:106 JLINK_ReadMemU32(0xE000EDF0, 0x0001 Items, ...) -- CPU_ReadMem(4 bytes @ 0xE000EDF0) - Data: 03 00 03 00  returns 0x01 (0001ms, 22039ms total)
T48EC 21873:107 JLINK_WriteU32(0xE000EDF0, 0xA05F0003) -- CPU_WriteMem(4 bytes @ 0xE000EDF0)  returns 0x00 (0001ms, 22040ms total)
T48EC 21873:108 JLINK_WriteU32(0xE000EDFC, 0x01000000) -- CPU_WriteMem(4 bytes @ 0xE000EDFC)  returns 0x00 (0001ms, 22041ms total)
T48EC 21873:118 JLINK_GetHWStatus(...)  returns 0x00 (0000ms, 22041ms total)
T48EC 21873:127 JLINK_GetNumBPUnits(Type = 0xFFFFFF00)  returns 0x06 (0001ms, 22042ms total)
T48EC 21873:128 JLINK_GetNumBPUnits(Type = 0xF0)  returns 0x2000 (0000ms, 22042ms total)
T48EC 21873:128 JLINK_GetNumWPUnits()  returns 0x04 (0000ms, 22042ms total)
T48EC 21873:135 JLINK_GetSpeed()  returns 0xFA0 (0001ms, 22043ms total)
T48EC 21873:141 JLINK_ReadMemU32(0xE000E004, 0x0001 Items, ...) -- CPU_ReadMem(4 bytes @ 0xE000E004) - Data: 02 00 00 00  returns 0x01 (0000ms, 22043ms total)
T48EC 21873:141 JLINK_ReadMemU32(0xE000E004, 0x0001 Items, ...) -- CPU_ReadMem(4 bytes @ 0xE000E004) - Data: 02 00 00 00  returns 0x01 (0001ms, 22044ms total)
T48EC 21873:142 JLINK_WriteMemEx(0xE0001000, 0x001C Bytes, ..., Flags = 0x02000004) - Data: 01 00 00 00 00 00 00 00 00 00 00 00 00 00 00 00 ... -- CPU_WriteMem(28 bytes @ 0xE0001000)  returns 0x1C (0002ms, 22046ms total)
T48EC 21873:144 JLINK_Halt()  returns 0x00 (0000ms, 22046ms total)
T48EC 21873:144 JLINK_IsHalted()  returns TRUE (0000ms, 22046ms total)
T48EC 21873:148 JLINK_WriteMem(0x20000000, 0x0198 Bytes, ...) - Data: 00 BE 0A E0 0D 78 2D 06 68 40 08 24 40 00 00 D3 ... -- CPU_WriteMem(408 bytes @ 0x20000000)  returns 0x198 (0007ms, 22053ms total)
T48EC 21873:155 JLINK_WriteReg(R0, 0x08000000)  returns 0x00 (0000ms, 22053ms total)
T48EC 21873:155 JLINK_WriteReg(R1, 0x0A037A00)  returns 0x00 (0000ms, 22053ms total)
T48EC 21873:155 JLINK_WriteReg(R2, 0x00000001)  returns 0x00 (0000ms, 22053ms total)
T48EC 21873:155 JLINK_WriteReg(R3, 0x00000000)  returns 0x00 (0000ms, 22053ms total)
T48EC 21873:155 JLINK_WriteReg(R4, 0x00000000)  returns 0x00 (0000ms, 22053ms total)
T48EC 21873:155 JLINK_WriteReg(R5, 0x00000000)  returns 0x00 (0000ms, 22053ms total)
T48EC 21873:155 JLINK_WriteReg(R6, 0x00000000)  returns 0x00 (0000ms, 22053ms total)
T48EC 21873:155 JLINK_WriteReg(R7, 0x00000000)  returns 0x00 (0000ms, 22053ms total)
T48EC 21873:155 JLINK_WriteReg(R8, 0x00000000)  returns 0x00 (0000ms, 22053ms total)
T48EC 21873:155 JLINK_WriteReg(R9, 0x20000194)  returns 0x00 (0001ms, 22054ms total)
T48EC 21873:156 JLINK_WriteReg(R10, 0x00000000)  returns 0x00 (0000ms, 22054ms total)
T48EC 21873:156 JLINK_WriteReg(R11, 0x00000000)  returns 0x00 (0000ms, 22054ms total)
T48EC 21873:156 JLINK_WriteReg(R12, 0x00000000)  returns 0x00 (0000ms, 22054ms total)
T48EC 21873:156 JLINK_WriteReg(R13 (SP), 0x20001000)  returns 0x00 (0000ms, 22054ms total)
T48EC 21873:156 JLINK_WriteReg(R14, 0x20000001)  returns 0x00 (0000ms, 22054ms total)
T48EC 21873:156 JLINK_WriteReg(R15 (PC), 0x2000005E)  returns 0x00 (0000ms, 22054ms total)
T48EC 21873:156 JLINK_WriteReg(XPSR, 0x01000000)  returns 0x00 (0000ms, 22054ms total)
T48EC 21873:156 JLINK_WriteReg(MSP, 0x20001000)  returns 0x00 (0000ms, 22054ms total)
T48EC 21873:156 JLINK_WriteReg(PSP, 0x20001000)  returns 0x00 (0000ms, 22054ms total)
T48EC 21873:156 JLINK_WriteReg(CFBP, 0x00000000)  returns 0x00 (0000ms, 22054ms total)
T48EC 21873:156 JLINK_SetBPEx(Addr = 0x20000000, Type = 0xFFFFFFF2) -- CPU_ReadMem(2 bytes @ 0x20000000)  returns 0x00000001 (0001ms, 22055ms total)
T48EC 21873:157 JLINK_Go() -- CPU_WriteMem(2 bytes @ 0x20000000) -- CPU_ReadMem(4 bytes @ 0xE0001000) -- CPU_WriteMem(4 bytes @ 0xE0002008) -- CPU_WriteMem(4 bytes @ 0xE000200C) -- CPU_WriteMem(4 bytes @ 0xE0002010) -- CPU_WriteMem(4 bytes @ 0xE0002014) -- CPU_WriteMem(4 bytes @ 0xE0002018) -- CPU_WriteMem(4 bytes @ 0xE000201C) -- CPU_WriteMem(4 bytes @ 0xE0001004) (0007ms, 22062ms total)
T48EC 21873:164 JLINK_IsHalted() -- CPU_ReadMem(2 bytes @ 0x20000000)  returns TRUE (0004ms, 22066ms total)
T48EC 21873:168 JLINK_ReadReg(R15 (PC))  returns 0x20000000 (0000ms, 22062ms total)
T48EC 21873:168 JLINK_ClrBPEx(BPHandle = 0x00000001)  returns 0x00 (0000ms, 22062ms total)
T48EC 21873:168 JLINK_ReadReg(R0)  returns 0x00000000 (0000ms, 22062ms total)
T48EC 21873:169 JLINK_WriteReg(R0, 0x08000000)  returns 0x00 (0000ms, 22062ms total)
T48EC 21873:169 JLINK_WriteReg(R1, 0x00004000)  returns 0x00 (0000ms, 22062ms total)
T48EC 21873:169 JLINK_WriteReg(R2, 0x000000FF)  returns 0x00 (0000ms, 22062ms total)
T48EC 21873:169 JLINK_WriteReg(R3, 0x00000000)  returns 0x00 (0000ms, 22062ms total)
T48EC 21873:169 JLINK_WriteReg(R4, 0x00000000)  returns 0x00 (0000ms, 22062ms total)
T48EC 21873:169 JLINK_WriteReg(R5, 0x00000000)  returns 0x00 (0000ms, 22062ms total)
T48EC 21873:169 JLINK_WriteReg(R6, 0x00000000)  returns 0x00 (0000ms, 22062ms total)
T48EC 21873:169 JLINK_WriteReg(R7, 0x00000000)  returns 0x00 (0000ms, 22062ms total)
T48EC 21873:169 JLINK_WriteReg(R8, 0x00000000)  returns 0x00 (0000ms, 22062ms total)
T48EC 21873:169 JLINK_WriteReg(R9, 0x20000194)  returns 0x00 (0000ms, 22062ms total)
T48EC 21873:169 JLINK_WriteReg(R10, 0x00000000)  returns 0x00 (0000ms, 22062ms total)
T48EC 21873:169 JLINK_WriteReg(R11, 0x00000000)  returns 0x00 (0001ms, 22063ms total)
T48EC 21873:170 JLINK_WriteReg(R12, 0x00000000)  returns 0x00 (0000ms, 22063ms total)
T48EC 21873:170 JLINK_WriteReg(R13 (SP), 0x20001000)  returns 0x00 (0000ms, 22063ms total)
T48EC 21873:170 JLINK_WriteReg(R14, 0x20000001)  returns 0x00 (0000ms, 22063ms total)
T48EC 21873:170 JLINK_WriteReg(R15 (PC), 0x20000020)  returns 0x00 (0000ms, 22063ms total)
T48EC 21873:170 JLINK_WriteReg(XPSR, 0x01000000)  returns 0x00 (0000ms, 22063ms total)
T48EC 21873:170 JLINK_WriteReg(MSP, 0x20001000)  returns 0x00 (0000ms, 22063ms total)
T48EC 21873:170 JLINK_WriteReg(PSP, 0x20001000)  returns 0x00 (0000ms, 22063ms total)
T48EC 21873:170 JLINK_WriteReg(CFBP, 0x00000000)  returns 0x00 (0000ms, 22063ms total)
T48EC 21873:170 JLINK_SetBPEx(Addr = 0x20000000, Type = 0xFFFFFFF2)  returns 0x00000002 (0000ms, 22063ms total)
T48EC 21873:170 JLINK_Go() -- CPU_ReadMem(4 bytes @ 0xE0001000) (0003ms, 22066ms total)
T48EC 21873:173 JLINK_IsHalted() -- CPU_ReadMem(2 bytes @ 0x20000000)  returns TRUE (0004ms, 22070ms total)
T48EC 21873:177 JLINK_ReadReg(R15 (PC))  returns 0x20000000 (0000ms, 22066ms total)
T48EC 21873:177 JLINK_ClrBPEx(BPHandle = 0x00000002)  returns 0x00 (0000ms, 22066ms total)
T48EC 21873:177 JLINK_ReadReg(R0)  returns 0x00000001 (0000ms, 22066ms total)
T48EC 21873:177 JLINK_WriteReg(R0, 0x08000000)  returns 0x00 (0000ms, 22066ms total)
T48EC 21873:177 JLINK_WriteReg(R1, 0x00004000)  returns 0x00 (0000ms, 22066ms total)
T48EC 21873:177 JLINK_WriteReg(R2, 0x000000FF)  returns 0x00 (0000ms, 22066ms total)
T48EC 21873:177 JLINK_WriteReg(R3, 0x00000000)  returns 0x00 (0000ms, 22066ms total)
T48EC 21873:177 JLINK_WriteReg(R4, 0x00000000)  returns 0x00 (0001ms, 22067ms total)
T48EC 21873:178 JLINK_WriteReg(R5, 0x00000000)  returns 0x00 (0000ms, 22067ms total)
T48EC 21873:178 JLINK_WriteReg(R6, 0x00000000)  returns 0x00 (0000ms, 22067ms total)
T48EC 21873:178 JLINK_WriteReg(R7, 0x00000000)  returns 0x00 (0000ms, 22067ms total)
T48EC 21873:178 JLINK_WriteReg(R8, 0x00000000)  returns 0x00 (0000ms, 22067ms total)
T48EC 21873:178 JLINK_WriteReg(R9, 0x20000194)  returns 0x00 (0000ms, 22067ms total)
T48EC 21873:178 JLINK_WriteReg(R10, 0x00000000)  returns 0x00 (0000ms, 22067ms total)
T48EC 21873:178 JLINK_WriteReg(R11, 0x00000000)  returns 0x00 (0000ms, 22067ms total)
T48EC 21873:178 JLINK_WriteReg(R12, 0x00000000)  returns 0x00 (0000ms, 22067ms total)
T48EC 21873:178 JLINK_WriteReg(R13 (SP), 0x20001000)  returns 0x00 (0000ms, 22067ms total)
T48EC 21873:178 JLINK_WriteReg(R14, 0x20000001)  returns 0x00 (0000ms, 22067ms total)
T48EC 21873:178 JLINK_WriteReg(R15 (PC), 0x200000D4)  returns 0x00 (0001ms, 22068ms total)
T48EC 21873:179 JLINK_WriteReg(XPSR, 0x01000000)  returns 0x00 (0000ms, 22068ms total)
T48EC 21873:179 JLINK_WriteReg(MSP, 0x20001000)  returns 0x00 (0000ms, 22068ms total)
T48EC 21873:179 JLINK_WriteReg(PSP, 0x20001000)  returns 0x00 (0000ms, 22068ms total)
T48EC 21873:179 JLINK_WriteReg(CFBP, 0x00000000)  returns 0x00 (0000ms, 22068ms total)
T48EC 21873:179 JLINK_SetBPEx(Addr = 0x20000000, Type = 0xFFFFFFF2)  returns 0x00000003 (0000ms, 22068ms total)
T48EC 21873:179 JLINK_Go() -- CPU_ReadMem(4 bytes @ 0xE0001000) (0002ms, 22070ms total)
T48EC 21873:181 JLINK_IsHalted()  returns FALSE (0001ms, 22071ms total)
T48EC 21873:238 JLINK_IsHalted()  returns FALSE (0000ms, 22070ms total)
T48EC 21873:292 JLINK_IsHalted()  returns FALSE (0000ms, 22070ms total)
T48EC 21873:401 JLINK_IsHalted()  returns FALSE (0000ms, 22070ms total)
T48EC 21873:421 JLINK_IsHalted()  returns FALSE (0000ms, 22070ms total)
T48EC 21873:424 JLINK_IsHalted()  returns FALSE (0000ms, 22070ms total)
T48EC 21873:426 JLINK_IsHalted()  returns FALSE (0000ms, 22070ms total)
T48EC 21873:429 JLINK_IsHalted()  returns FALSE (0000ms, 22070ms total)
T48EC 21873:431 JLINK_IsHalted()  returns FALSE (0000ms, 22070ms total)
T48EC 21873:433 JLINK_IsHalted()  returns FALSE (0000ms, 22070ms total)
T48EC 21873:435 JLINK_IsHalted()  returns FALSE (0000ms, 22070ms total)
T48EC 21873:437 JLINK_IsHalted()  returns FALSE (0000ms, 22070ms total)
T48EC 21873:439 JLINK_IsHalted()  returns FALSE (0000ms, 22070ms total)
T48EC 21873:441 JLINK_IsHalted()  returns FALSE (0000ms, 22070ms total)
T48EC 21873:443 JLINK_IsHalted()  returns FALSE (0000ms, 22070ms total)
T48EC 21873:445 JLINK_IsHalted()  returns FALSE (0000ms, 22070ms total)
T48EC 21873:447 JLINK_IsHalted()  returns FALSE (0001ms, 22071ms total)
T48EC 21873:450 JLINK_IsHalted()  returns FALSE (0000ms, 22070ms total)
T48EC 21873:452 JLINK_IsHalted()  returns FALSE (0000ms, 22070ms total)
T48EC 21873:454 JLINK_IsHalted()  returns FALSE (0000ms, 22070ms total)
T48EC 21873:456 JLINK_IsHalted()  returns FALSE (0000ms, 22070ms total)
T48EC 21873:458 JLINK_IsHalted()  returns FALSE (0000ms, 22070ms total)
T48EC 21873:460 JLINK_IsHalted()  returns FALSE (0000ms, 22070ms total)
T48EC 21873:462 JLINK_IsHalted()  returns FALSE (0000ms, 22070ms total)
T48EC 21873:464 JLINK_IsHalted()  returns FALSE (0000ms, 22070ms total)
T48EC 21873:466 JLINK_IsHalted()  returns FALSE (0000ms, 22070ms total)
T48EC 21873:468 JLINK_IsHalted()  returns FALSE (0000ms, 22070ms total)
T48EC 21873:470 JLINK_IsHalted()  returns FALSE (0000ms, 22070ms total)
T48EC 21873:472 JLINK_IsHalted()  returns FALSE (0000ms, 22070ms total)
T48EC 21873:476 JLINK_IsHalted()  returns FALSE (0000ms, 22070ms total)
T48EC 21873:478 JLINK_IsHalted()  returns FALSE (0000ms, 22070ms total)
T48EC 21873:480 JLINK_IsHalted()  returns FALSE (0000ms, 22070ms total)
T48EC 21873:482 JLINK_IsHalted()  returns FALSE (0000ms, 22070ms total)
T48EC 21873:484 JLINK_IsHalted()  returns FALSE (0001ms, 22071ms total)
T48EC 21873:487 JLINK_IsHalted()  returns FALSE (0000ms, 22070ms total)
T48EC 21873:489 JLINK_IsHalted()  returns FALSE (0000ms, 22070ms total)
T48EC 21873:491 JLINK_IsHalted()  returns FALSE (0000ms, 22070ms total)
T48EC 21873:493 JLINK_IsHalted()  returns FALSE (0000ms, 22070ms total)
T48EC 21873:495 JLINK_IsHalted()  returns FALSE (0000ms, 22070ms total)
T48EC 21873:497 JLINK_IsHalted()  returns FALSE (0000ms, 22070ms total)
T48EC 21873:499 JLINK_IsHalted()  returns FALSE (0000ms, 22070ms total)
T48EC 21873:501 JLINK_IsHalted()  returns FALSE (0000ms, 22070ms total)
T48EC 21873:503 JLINK_IsHalted()  returns FALSE (0000ms, 22070ms total)
T48EC 21873:505 JLINK_IsHalted()  returns FALSE (0000ms, 22070ms total)
T48EC 21873:507 JLINK_IsHalted()  returns FALSE (0000ms, 22070ms total)
T48EC 21873:509 JLINK_IsHalted()  returns FALSE (0000ms, 22070ms total)
T48EC 21873:511 JLINK_IsHalted()  returns FALSE (0000ms, 22070ms total)
T48EC 21873:513 JLINK_IsHalted()  returns FALSE (0000ms, 22070ms total)
T48EC 21873:515 JLINK_IsHalted()  returns FALSE (0000ms, 22070ms total)
T48EC 21873:517 JLINK_IsHalted()  returns FALSE (0000ms, 22070ms total)
T48EC 21873:519 JLINK_IsHalted()  returns FALSE (0001ms, 22071ms total)
T48EC 21873:522 JLINK_IsHalted()  returns FALSE (0000ms, 22070ms total)
T48EC 21873:524 JLINK_IsHalted()  returns FALSE (0000ms, 22070ms total)
T48EC 21873:526 JLINK_IsHalted()  returns FALSE (0000ms, 22070ms total)
T48EC 21873:528 JLINK_IsHalted()  returns FALSE (0001ms, 22071ms total)
T48EC 21873:531 JLINK_IsHalted()  returns FALSE (0000ms, 22070ms total)
T48EC 21873:533 JLINK_IsHalted()  returns FALSE (0000ms, 22070ms total)
T48EC 21873:535 JLINK_IsHalted()  returns FALSE (0000ms, 22070ms total)
T48EC 21873:537 JLINK_IsHalted()  returns FALSE (0000ms, 22070ms total)
T48EC 21873:539 JLINK_IsHalted()  returns FALSE (0000ms, 22070ms total)
T48EC 21873:541 JLINK_IsHalted()  returns FALSE (0000ms, 22070ms total)
T48EC 21873:544 JLINK_IsHalted()  returns FALSE (0000ms, 22070ms total)
T48EC 21873:546 JLINK_IsHalted()  returns FALSE (0000ms, 22070ms total)
T48EC 21873:549 JLINK_IsHalted()  returns FALSE (0000ms, 22070ms total)
T48EC 21873:553 JLINK_IsHalted()  returns FALSE (0000ms, 22070ms total)
T48EC 21873:555 JLINK_IsHalted()  returns FALSE (0000ms, 22070ms total)
T48EC 21873:558 JLINK_IsHalted() -- CPU_ReadMem(2 bytes @ 0x20000000)  returns TRUE (0004ms, 22074ms total)
T48EC 21873:562 JLINK_ReadReg(R15 (PC))  returns 0x20000000 (0000ms, 22070ms total)
T48EC 21873:562 JLINK_ClrBPEx(BPHandle = 0x00000003)  returns 0x00 (0000ms, 22070ms total)
T48EC 21873:562 JLINK_ReadReg(R0)  returns 0x00000000 (0000ms, 22070ms total)
T48EC 21873:562 JLINK_WriteReg(R0, 0x00000001)  returns 0x00 (0000ms, 22070ms total)
T48EC 21873:562 JLINK_WriteReg(R1, 0x00004000)  returns 0x00 (0000ms, 22070ms total)
T48EC 21873:562 JLINK_WriteReg(R2, 0x000000FF)  returns 0x00 (0000ms, 22070ms total)
T48EC 21873:563 JLINK_WriteReg(R3, 0x00000000)  returns 0x00 (0000ms, 22071ms total)
T48EC 21873:563 JLINK_WriteReg(R4, 0x00000000)  returns 0x00 (0000ms, 22071ms total)
T48EC 21873:563 JLINK_WriteReg(R5, 0x00000000)  returns 0x00 (0000ms, 22071ms total)
T48EC 21873:563 JLINK_WriteReg(R6, 0x00000000)  returns 0x00 (0000ms, 22071ms total)
T48EC 21873:563 JLINK_WriteReg(R7, 0x00000000)  returns 0x00 (0000ms, 22071ms total)
T48EC 21873:563 JLINK_WriteReg(R8, 0x00000000)  returns 0x00 (0000ms, 22071ms total)
T48EC 21873:563 JLINK_WriteReg(R9, 0x20000194)  returns 0x00 (0000ms, 22071ms total)
T48EC 21873:563 JLINK_WriteReg(R10, 0x00000000)  returns 0x00 (0000ms, 22071ms total)
T48EC 21873:563 JLINK_WriteReg(R11, 0x00000000)  returns 0x00 (0000ms, 22071ms total)
T48EC 21873:563 JLINK_WriteReg(R12, 0x00000000)  returns 0x00 (0000ms, 22071ms total)
T48EC 21873:563 JLINK_WriteReg(R13 (SP), 0x20001000)  returns 0x00 (0000ms, 22071ms total)
T48EC 21873:564 JLINK_WriteReg(R14, 0x20000001)  returns 0x00 (0000ms, 22072ms total)
T48EC 21873:564 JLINK_WriteReg(R15 (PC), 0x2000008C)  returns 0x00 (0000ms, 22072ms total)
T48EC 21873:564 JLINK_WriteReg(XPSR, 0x01000000)  returns 0x00 (0000ms, 22072ms total)
T48EC 21873:564 JLINK_WriteReg(MSP, 0x20001000)  returns 0x00 (0000ms, 22072ms total)
T48EC 21873:564 JLINK_WriteReg(PSP, 0x20001000)  returns 0x00 (0000ms, 22072ms total)
T48EC 21873:564 JLINK_WriteReg(CFBP, 0x00000000)  returns 0x00 (0000ms, 22072ms total)
T48EC 21873:564 JLINK_SetBPEx(Addr = 0x20000000, Type = 0xFFFFFFF2)  returns 0x00000004 (0000ms, 22072ms total)
T48EC 21873:564 JLINK_Go() -- CPU_ReadMem(4 bytes @ 0xE0001000) (0003ms, 22075ms total)
T48EC 21873:567 JLINK_IsHalted() -- CPU_ReadMem(2 bytes @ 0x20000000)  returns TRUE (0004ms, 22079ms total)
T48EC 21873:571 JLINK_ReadReg(R15 (PC))  returns 0x20000000 (0000ms, 22075ms total)
T48EC 21873:571 JLINK_ClrBPEx(BPHandle = 0x00000004)  returns 0x00 (0001ms, 22076ms total)
T48EC 21873:572 JLINK_ReadReg(R0)  returns 0x00000000 (0000ms, 22076ms total)
T48EC 21873:630 JLINK_WriteMem(0x20000000, 0x0198 Bytes, ...) - Data: 00 BE 0A E0 0D 78 2D 06 68 40 08 24 40 00 00 D3 ... -- CPU_WriteMem(408 bytes @ 0x20000000)  returns 0x198 (0005ms, 22081ms total)
T48EC 21873:635 JLINK_WriteReg(R0, 0x08000000)  returns 0x00 (0001ms, 22082ms total)
T48EC 21873:636 JLINK_WriteReg(R1, 0x0A037A00)  returns 0x00 (0000ms, 22082ms total)
T48EC 21873:636 JLINK_WriteReg(R2, 0x00000002)  returns 0x00 (0000ms, 22082ms total)
T48EC 21873:636 JLINK_WriteReg(R3, 0x00000000)  returns 0x00 (0000ms, 22082ms total)
T48EC 21873:636 JLINK_WriteReg(R4, 0x00000000)  returns 0x00 (0000ms, 22082ms total)
T48EC 21873:636 JLINK_WriteReg(R5, 0x00000000)  returns 0x00 (0000ms, 22082ms total)
T48EC 21873:636 JLINK_WriteReg(R6, 0x00000000)  returns 0x00 (0000ms, 22082ms total)
T48EC 21873:636 JLINK_WriteReg(R7, 0x00000000)  returns 0x00 (0000ms, 22082ms total)
T48EC 21873:636 JLINK_WriteReg(R8, 0x00000000)  returns 0x00 (0000ms, 22082ms total)
T48EC 21873:636 JLINK_WriteReg(R9, 0x20000194)  returns 0x00 (0000ms, 22082ms total)
T48EC 21873:636 JLINK_WriteReg(R10, 0x00000000)  returns 0x00 (0000ms, 22082ms total)
T48EC 21873:636 JLINK_WriteReg(R11, 0x00000000)  returns 0x00 (0000ms, 22082ms total)
T48EC 21873:637 JLINK_WriteReg(R12, 0x00000000)  returns 0x00 (0000ms, 22083ms total)
T48EC 21873:637 JLINK_WriteReg(R13 (SP), 0x20001000)  returns 0x00 (0000ms, 22083ms total)
T48EC 21873:637 JLINK_WriteReg(R14, 0x20000001)  returns 0x00 (0000ms, 22083ms total)
T48EC 21873:637 JLINK_WriteReg(R15 (PC), 0x2000005E)  returns 0x00 (0000ms, 22083ms total)
T48EC 21873:637 JLINK_WriteReg(XPSR, 0x01000000)  returns 0x00 (0000ms, 22083ms total)
T48EC 21873:637 JLINK_WriteReg(MSP, 0x20001000)  returns 0x00 (0000ms, 22083ms total)
T48EC 21873:637 JLINK_WriteReg(PSP, 0x20001000)  returns 0x00 (0000ms, 22083ms total)
T48EC 21873:637 JLINK_WriteReg(CFBP, 0x00000000)  returns 0x00 (0000ms, 22083ms total)
T48EC 21873:637 JLINK_SetBPEx(Addr = 0x20000000, Type = 0xFFFFFFF2) -- CPU_ReadMem(2 bytes @ 0x20000000)  returns 0x00000005 (0001ms, 22084ms total)
T48EC 21873:638 JLINK_Go() -- CPU_WriteMem(2 bytes @ 0x20000000) -- CPU_ReadMem(4 bytes @ 0xE0001000) (0003ms, 22087ms total)
T48EC 21873:641 JLINK_IsHalted() -- CPU_ReadMem(2 bytes @ 0x20000000)  returns TRUE (0004ms, 22091ms total)
T48EC 21873:645 JLINK_ReadReg(R15 (PC))  returns 0x20000000 (0000ms, 22087ms total)
T48EC 21873:645 JLINK_ClrBPEx(BPHandle = 0x00000005)  returns 0x00 (0000ms, 22087ms total)
T48EC 21873:645 JLINK_ReadReg(R0)  returns 0x00000000 (0000ms, 22087ms total)
T48EC 21873:645 JLINK_WriteMem(0x20000198, 0x0268 Bytes, ...) - Data: D8 05 00 20 C1 01 00 08 A3 18 00 08 9F 15 00 08 ... -- CPU_WriteMem(616 bytes @ 0x20000198)  returns 0x268 (0008ms, 22095ms total)
T48EC 21873:653 JLINK_WriteMem(0x20000400, 0x0198 Bytes, ...) - Data: 10 BD 00 F0 00 42 30 F0 00 40 0A D0 C1 0D 01 F5 ... -- CPU_WriteMem(408 bytes @ 0x20000400)  returns 0x198 (0006ms, 22101ms total)
T48EC 21873:659 JLINK_WriteReg(R0, 0x08000000)  returns 0x00 (0000ms, 22101ms total)
T48EC 21873:659 JLINK_WriteReg(R1, 0x00000400)  returns 0x00 (0000ms, 22101ms total)
T48EC 21873:659 JLINK_WriteReg(R2, 0x20000198)  returns 0x00 (0000ms, 22101ms total)
T48EC 21873:659 JLINK_WriteReg(R3, 0x00000000)  returns 0x00 (0000ms, 22101ms total)
T48EC 21873:659 JLINK_WriteReg(R4, 0x00000000)  returns 0x00 (0000ms, 22101ms total)
T48EC 21873:659 JLINK_WriteReg(R5, 0x00000000)  returns 0x00 (0000ms, 22101ms total)
T48EC 21873:659 JLINK_WriteReg(R6, 0x00000000)  returns 0x00 (0000ms, 22101ms total)
T48EC 21873:659 JLINK_WriteReg(R7, 0x00000000)  returns 0x00 (0001ms, 22102ms total)
T48EC 21873:660 JLINK_WriteReg(R8, 0x00000000)  returns 0x00 (0000ms, 22102ms total)
T48EC 21873:660 JLINK_WriteReg(R9, 0x20000194)  returns 0x00 (0000ms, 22102ms total)
T48EC 21873:660 JLINK_WriteReg(R10, 0x00000000)  returns 0x00 (0000ms, 22102ms total)
T48EC 21873:660 JLINK_WriteReg(R11, 0x00000000)  returns 0x00 (0000ms, 22102ms total)
T48EC 21873:660 JLINK_WriteReg(R12, 0x00000000)  returns 0x00 (0000ms, 22102ms total)
T48EC 21873:660 JLINK_WriteReg(R13 (SP), 0x20001000)  returns 0x00 (0000ms, 22102ms total)
T48EC 21873:660 JLINK_WriteReg(R14, 0x20000001)  returns 0x00 (0000ms, 22102ms total)
T48EC 21873:660 JLINK_WriteReg(R15 (PC), 0x20000120)  returns 0x00 (0000ms, 22102ms total)
T48EC 21873:660 JLINK_WriteReg(XPSR, 0x01000000)  returns 0x00 (0000ms, 22102ms total)
T48EC 21873:660 JLINK_WriteReg(MSP, 0x20001000)  returns 0x00 (0000ms, 22102ms total)
T48EC 21873:660 JLINK_WriteReg(PSP, 0x20001000)  returns 0x00 (0000ms, 22102ms total)
T48EC 21873:660 JLINK_WriteReg(CFBP, 0x00000000)  returns 0x00 (0001ms, 22103ms total)
T48EC 21873:661 JLINK_SetBPEx(Addr = 0x20000000, Type = 0xFFFFFFF2)  returns 0x00000006 (0000ms, 22103ms total)
T48EC 21873:661 JLINK_Go() -- CPU_ReadMem(4 bytes @ 0xE0001000) (0002ms, 22105ms total)
T48EC 21873:663 JLINK_IsHalted()  returns FALSE (0001ms, 22106ms total)
T48EC 21873:675 JLINK_IsHalted() -- CPU_ReadMem(2 bytes @ 0x20000000)  returns TRUE (0004ms, 22109ms total)
T48EC 21873:679 JLINK_ReadReg(R15 (PC))  returns 0x20000000 (0000ms, 22105ms total)
T48EC 21873:680 JLINK_ClrBPEx(BPHandle = 0x00000006)  returns 0x00 (0000ms, 22106ms total)
T48EC 21873:680 JLINK_ReadReg(R0)  returns 0x00000000 (0000ms, 22106ms total)
T48EC 21873:682 JLINK_WriteMem(0x20000198, 0x0268 Bytes, ...) - Data: 80 11 49 08 4F EA 30 00 00 19 51 41 32 46 2B 46 ... -- CPU_WriteMem(616 bytes @ 0x20000198)  returns 0x268 (0007ms, 22113ms total)
T48EC 21873:689 JLINK_WriteMem(0x20000400, 0x0198 Bytes, ...) - Data: 90 42 30 BD 06 4C 07 4D 06 E0 E0 68 40 F0 01 03 ... -- CPU_WriteMem(408 bytes @ 0x20000400)  returns 0x198 (0006ms, 22119ms total)
T48EC 21873:695 JLINK_WriteReg(R0, 0x08000400)  returns 0x00 (0000ms, 22119ms total)
T48EC 21873:695 JLINK_WriteReg(R1, 0x00000400)  returns 0x00 (0000ms, 22119ms total)
T48EC 21873:695 JLINK_WriteReg(R2, 0x20000198)  returns 0x00 (0000ms, 22119ms total)
T48EC 21873:695 JLINK_WriteReg(R3, 0x00000000)  returns 0x00 (0000ms, 22119ms total)
T48EC 21873:695 JLINK_WriteReg(R4, 0x00000000)  returns 0x00 (0000ms, 22119ms total)
T48EC 21873:695 JLINK_WriteReg(R5, 0x00000000)  returns 0x00 (0000ms, 22119ms total)
T48EC 21873:695 JLINK_WriteReg(R6, 0x00000000)  returns 0x00 (0001ms, 22120ms total)
T48EC 21873:696 JLINK_WriteReg(R7, 0x00000000)  returns 0x00 (0000ms, 22120ms total)
T48EC 21873:696 JLINK_WriteReg(R8, 0x00000000)  returns 0x00 (0000ms, 22120ms total)
T48EC 21873:696 JLINK_WriteReg(R9, 0x20000194)  returns 0x00 (0000ms, 22120ms total)
T48EC 21873:696 JLINK_WriteReg(R10, 0x00000000)  returns 0x00 (0000ms, 22120ms total)
T48EC 21873:696 JLINK_WriteReg(R11, 0x00000000)  returns 0x00 (0000ms, 22120ms total)
T48EC 21873:696 JLINK_WriteReg(R12, 0x00000000)  returns 0x00 (0000ms, 22120ms total)
T48EC 21873:696 JLINK_WriteReg(R13 (SP), 0x20001000)  returns 0x00 (0000ms, 22120ms total)
T48EC 21873:696 JLINK_WriteReg(R14, 0x20000001)  returns 0x00 (0000ms, 22120ms total)
T48EC 21873:696 JLINK_WriteReg(R15 (PC), 0x20000120)  returns 0x00 (0000ms, 22120ms total)
T48EC 21873:696 JLINK_WriteReg(XPSR, 0x01000000)  returns 0x00 (0000ms, 22120ms total)
T48EC 21873:696 JLINK_WriteReg(MSP, 0x20001000)  returns 0x00 (0000ms, 22120ms total)
T48EC 21873:696 JLINK_WriteReg(PSP, 0x20001000)  returns 0x00 (0001ms, 22121ms total)
T48EC 21873:697 JLINK_WriteReg(CFBP, 0x00000000)  returns 0x00 (0000ms, 22121ms total)
T48EC 21873:697 JLINK_SetBPEx(Addr = 0x20000000, Type = 0xFFFFFFF2)  returns 0x00000007 (0000ms, 22121ms total)
T48EC 21873:697 JLINK_Go() -- CPU_ReadMem(4 bytes @ 0xE0001000) (0003ms, 22124ms total)
T48EC 21873:700 JLINK_IsHalted()  returns FALSE (0000ms, 22124ms total)
T48EC 21873:707 JLINK_IsHalted() -- CPU_ReadMem(2 bytes @ 0x20000000)  returns TRUE (0004ms, 22128ms total)
T48EC 21873:711 JLINK_ReadReg(R15 (PC))  returns 0x20000000 (0000ms, 22124ms total)
T48EC 21873:711 JLINK_ClrBPEx(BPHandle = 0x00000007)  returns 0x00 (0000ms, 22124ms total)
T48EC 21873:711 JLINK_ReadReg(R0)  returns 0x00000000 (0000ms, 22124ms total)
T48EC 21873:712 JLINK_WriteMem(0x20000198, 0x0268 Bytes, ...) - Data: 0C 79 C4 F3 00 14 94 40 34 43 44 60 C4 68 8E 68 ... -- CPU_WriteMem(616 bytes @ 0x20000198)  returns 0x268 (0008ms, 22132ms total)
T48EC 21873:720 JLINK_WriteMem(0x20000400, 0x0198 Bytes, ...) - Data: 0C ED 00 E0 00 00 FA 05 2D E9 F0 47 0E 46 05 00 ... -- CPU_WriteMem(408 bytes @ 0x20000400)  returns 0x198 (0006ms, 22138ms total)
T48EC 21873:726 JLINK_WriteReg(R0, 0x08000800)  returns 0x00 (0000ms, 22138ms total)
T48EC 21873:726 JLINK_WriteReg(R1, 0x00000400)  returns 0x00 (0000ms, 22138ms total)
T48EC 21873:726 JLINK_WriteReg(R2, 0x20000198)  returns 0x00 (0000ms, 22138ms total)
T48EC 21873:726 JLINK_WriteReg(R3, 0x00000000)  returns 0x00 (0000ms, 22138ms total)
T48EC 21873:726 JLINK_WriteReg(R4, 0x00000000)  returns 0x00 (0000ms, 22138ms total)
T48EC 21873:726 JLINK_WriteReg(R5, 0x00000000)  returns 0x00 (0000ms, 22138ms total)
T48EC 21873:726 JLINK_WriteReg(R6, 0x00000000)  returns 0x00 (0000ms, 22138ms total)
T48EC 21873:726 JLINK_WriteReg(R7, 0x00000000)  returns 0x00 (0000ms, 22138ms total)
T48EC 21873:726 JLINK_WriteReg(R8, 0x00000000)  returns 0x00 (0000ms, 22138ms total)
T48EC 21873:727 JLINK_WriteReg(R9, 0x20000194)  returns 0x00 (0000ms, 22139ms total)
T48EC 21873:727 JLINK_WriteReg(R10, 0x00000000)  returns 0x00 (0000ms, 22139ms total)
T48EC 21873:727 JLINK_WriteReg(R11, 0x00000000)  returns 0x00 (0000ms, 22139ms total)
T48EC 21873:727 JLINK_WriteReg(R12, 0x00000000)  returns 0x00 (0000ms, 22139ms total)
T48EC 21873:727 JLINK_WriteReg(R13 (SP), 0x20001000)  returns 0x00 (0000ms, 22139ms total)
T48EC 21873:727 JLINK_WriteReg(R14, 0x20000001)  returns 0x00 (0000ms, 22139ms total)
T48EC 21873:727 JLINK_WriteReg(R15 (PC), 0x20000120)  returns 0x00 (0000ms, 22139ms total)
T48EC 21873:727 JLINK_WriteReg(XPSR, 0x01000000)  returns 0x00 (0000ms, 22139ms total)
T48EC 21873:727 JLINK_WriteReg(MSP, 0x20001000)  returns 0x00 (0000ms, 22139ms total)
T48EC 21873:727 JLINK_WriteReg(PSP, 0x20001000)  returns 0x00 (0000ms, 22139ms total)
T48EC 21873:727 JLINK_WriteReg(CFBP, 0x00000000)  returns 0x00 (0001ms, 22140ms total)
T48EC 21873:728 JLINK_SetBPEx(Addr = 0x20000000, Type = 0xFFFFFFF2)  returns 0x00000008 (0000ms, 22140ms total)
T48EC 21873:728 JLINK_Go() -- CPU_ReadMem(4 bytes @ 0xE0001000) (0003ms, 22143ms total)
T48EC 21873:731 JLINK_IsHalted()  returns FALSE (0000ms, 22143ms total)
T48EC 21873:734 JLINK_IsHalted()  returns FALSE (0000ms, 22143ms total)
T48EC 21873:736 JLINK_IsHalted() -- CPU_ReadMem(2 bytes @ 0x20000000)  returns TRUE (0004ms, 22147ms total)
T48EC 21873:740 JLINK_ReadReg(R15 (PC))  returns 0x20000000 (0000ms, 22143ms total)
T48EC 21873:740 JLINK_ClrBPEx(BPHandle = 0x00000008)  returns 0x00 (0000ms, 22143ms total)
T48EC 21873:740 JLINK_ReadReg(R0)  returns 0x00000000 (0000ms, 22143ms total)
T48EC 21873:741 JLINK_WriteMem(0x20000198, 0x0268 Bytes, ...) - Data: 02 F0 3F 02 5B 02 07 D5 20 68 C0 F3 88 10 A0 FB ... -- CPU_WriteMem(616 bytes @ 0x20000198)  returns 0x268 (0008ms, 22151ms total)
T48EC 21873:749 JLINK_WriteMem(0x20000400, 0x0198 Bytes, ...) - Data: 30 68 80 07 F4 D5 0E E0 FF F7 6C FD 00 90 07 E0 ... -- CPU_WriteMem(408 bytes @ 0x20000400)  returns 0x198 (0005ms, 22156ms total)
T48EC 21873:755 JLINK_WriteReg(R0, 0x08000C00)  returns 0x00 (0000ms, 22156ms total)
T48EC 21873:755 JLINK_WriteReg(R1, 0x00000400)  returns 0x00 (0000ms, 22156ms total)
T48EC 21873:755 JLINK_WriteReg(R2, 0x20000198)  returns 0x00 (0000ms, 22156ms total)
T48EC 21873:755 JLINK_WriteReg(R3, 0x00000000)  returns 0x00 (0000ms, 22156ms total)
T48EC 21873:755 JLINK_WriteReg(R4, 0x00000000)  returns 0x00 (0000ms, 22156ms total)
T48EC 21873:755 JLINK_WriteReg(R5, 0x00000000)  returns 0x00 (0001ms, 22157ms total)
T48EC 21873:756 JLINK_WriteReg(R6, 0x00000000)  returns 0x00 (0000ms, 22157ms total)
T48EC 21873:756 JLINK_WriteReg(R7, 0x00000000)  returns 0x00 (0000ms, 22157ms total)
T48EC 21873:756 JLINK_WriteReg(R8, 0x00000000)  returns 0x00 (0000ms, 22157ms total)
T48EC 21873:756 JLINK_WriteReg(R9, 0x20000194)  returns 0x00 (0000ms, 22157ms total)
T48EC 21873:756 JLINK_WriteReg(R10, 0x00000000)  returns 0x00 (0000ms, 22157ms total)
T48EC 21873:756 JLINK_WriteReg(R11, 0x00000000)  returns 0x00 (0000ms, 22157ms total)
T48EC 21873:756 JLINK_WriteReg(R12, 0x00000000)  returns 0x00 (0000ms, 22157ms total)
T48EC 21873:756 JLINK_WriteReg(R13 (SP), 0x20001000)  returns 0x00 (0000ms, 22157ms total)
T48EC 21873:756 JLINK_WriteReg(R14, 0x20000001)  returns 0x00 (0000ms, 22157ms total)
T48EC 21873:756 JLINK_WriteReg(R15 (PC), 0x20000120)  returns 0x00 (0000ms, 22157ms total)
T48EC 21873:756 JLINK_WriteReg(XPSR, 0x01000000)  returns 0x00 (0001ms, 22158ms total)
T48EC 21873:757 JLINK_WriteReg(MSP, 0x20001000)  returns 0x00 (0000ms, 22158ms total)
T48EC 21873:757 JLINK_WriteReg(PSP, 0x20001000)  returns 0x00 (0000ms, 22158ms total)
T48EC 21873:757 JLINK_WriteReg(CFBP, 0x00000000)  returns 0x00 (0000ms, 22158ms total)
T48EC 21873:757 JLINK_SetBPEx(Addr = 0x20000000, Type = 0xFFFFFFF2)  returns 0x00000009 (0000ms, 22158ms total)
T48EC 21873:757 JLINK_Go() -- CPU_ReadMem(4 bytes @ 0xE0001000) (0003ms, 22161ms total)
T48EC 21873:760 JLINK_IsHalted()  returns FALSE (0000ms, 22161ms total)
T48EC 21873:766 JLINK_IsHalted() -- CPU_ReadMem(2 bytes @ 0x20000000)  returns TRUE (0004ms, 22165ms total)
T48EC 21873:770 JLINK_ReadReg(R15 (PC))  returns 0x20000000 (0000ms, 22161ms total)
T48EC 21873:770 JLINK_ClrBPEx(BPHandle = 0x00000009)  returns 0x00 (0000ms, 22161ms total)
T48EC 21873:770 JLINK_ReadReg(R0)  returns 0x00000000 (0000ms, 22161ms total)
T48EC 21873:771 JLINK_WriteMem(0x20000198, 0x0268 Bytes, ...) - Data: 5C 60 03 68 5C 68 0D 68 2C 43 5C 60 03 68 9C 68 ... -- CPU_WriteMem(616 bytes @ 0x20000198)  returns 0x268 (0007ms, 22168ms total)
T48EC 21873:778 JLINK_WriteMem(0x20000400, 0x0198 Bytes, ...) - Data: 00 68 00 F0 01 00 F5 E7 0D 4A 91 42 07 D1 01 68 ... -- CPU_WriteMem(408 bytes @ 0x20000400)  returns 0x198 (0005ms, 22173ms total)
T48EC 21873:783 JLINK_WriteReg(R0, 0x08001000)  returns 0x00 (0000ms, 22173ms total)
T48EC 21873:783 JLINK_WriteReg(R1, 0x00000400)  returns 0x00 (0000ms, 22173ms total)
T48EC 21873:783 JLINK_WriteReg(R2, 0x20000198)  returns 0x00 (0000ms, 22173ms total)
T48EC 21873:783 JLINK_WriteReg(R3, 0x00000000)  returns 0x00 (0000ms, 22173ms total)
T48EC 21873:783 JLINK_WriteReg(R4, 0x00000000)  returns 0x00 (0001ms, 22174ms total)
T48EC 21873:784 JLINK_WriteReg(R5, 0x00000000)  returns 0x00 (0000ms, 22174ms total)
T48EC 21873:784 JLINK_WriteReg(R6, 0x00000000)  returns 0x00 (0000ms, 22174ms total)
T48EC 21873:784 JLINK_WriteReg(R7, 0x00000000)  returns 0x00 (0000ms, 22174ms total)
T48EC 21873:784 JLINK_WriteReg(R8, 0x00000000)  returns 0x00 (0000ms, 22174ms total)
T48EC 21873:784 JLINK_WriteReg(R9, 0x20000194)  returns 0x00 (0000ms, 22174ms total)
T48EC 21873:784 JLINK_WriteReg(R10, 0x00000000)  returns 0x00 (0001ms, 22175ms total)
T48EC 21873:785 JLINK_WriteReg(R11, 0x00000000)  returns 0x00 (0000ms, 22175ms total)
T48EC 21873:785 JLINK_WriteReg(R12, 0x00000000)  returns 0x00 (0000ms, 22175ms total)
T48EC 21873:785 JLINK_WriteReg(R13 (SP), 0x20001000)  returns 0x00 (0000ms, 22175ms total)
T48EC 21873:785 JLINK_WriteReg(R14, 0x20000001)  returns 0x00 (0000ms, 22175ms total)
T48EC 21873:785 JLINK_WriteReg(R15 (PC), 0x20000120)  returns 0x00 (0000ms, 22175ms total)
T48EC 21873:785 JLINK_WriteReg(XPSR, 0x01000000)  returns 0x00 (0000ms, 22175ms total)
T48EC 21873:785 JLINK_WriteReg(MSP, 0x20001000)  returns 0x00 (0000ms, 22175ms total)
T48EC 21873:785 JLINK_WriteReg(PSP, 0x20001000)  returns 0x00 (0000ms, 22175ms total)
T48EC 21873:785 JLINK_WriteReg(CFBP, 0x00000000)  returns 0x00 (0000ms, 22175ms total)
T48EC 21873:785 JLINK_SetBPEx(Addr = 0x20000000, Type = 0xFFFFFFF2)  returns 0x0000000A (0000ms, 22175ms total)
T48EC 21873:785 JLINK_Go() -- CPU_ReadMem(4 bytes @ 0xE0001000) (0003ms, 22178ms total)
T48EC 21873:788 JLINK_IsHalted()  returns FALSE (0001ms, 22179ms total)
T48EC 21873:791 JLINK_IsHalted()  returns FALSE (0000ms, 22178ms total)
T48EC 21873:794 JLINK_IsHalted() -- CPU_ReadMem(2 bytes @ 0x20000000)  returns TRUE (0004ms, 22182ms total)
T48EC 21873:798 JLINK_ReadReg(R15 (PC))  returns 0x20000000 (0000ms, 22178ms total)
T48EC 21873:798 JLINK_ClrBPEx(BPHandle = 0x0000000A)  returns 0x00 (0000ms, 22178ms total)
T48EC 21873:798 JLINK_ReadReg(R0)  returns 0x00000000 (0000ms, 22178ms total)
T48EC 21873:798 JLINK_WriteMem(0x20000198, 0x0268 Bytes, ...) - Data: 40 00 05 90 4F F4 84 40 8D E8 31 00 06 48 CD E9 ... -- CPU_WriteMem(616 bytes @ 0x20000198)  returns 0x268 (0008ms, 22186ms total)
T48EC 21873:806 JLINK_WriteMem(0x20000400, 0x0198 Bytes, ...) - Data: F0 81 00 00 30 38 02 40 00 10 02 40 00 14 02 40 ... -- CPU_WriteMem(408 bytes @ 0x20000400)  returns 0x198 (0006ms, 22192ms total)
T48EC 21873:812 JLINK_WriteReg(R0, 0x08001400)  returns 0x00 (0000ms, 22192ms total)
T48EC 21873:812 JLINK_WriteReg(R1, 0x00000400)  returns 0x00 (0000ms, 22192ms total)
T48EC 21873:812 JLINK_WriteReg(R2, 0x20000198)  returns 0x00 (0000ms, 22192ms total)
T48EC 21873:812 JLINK_WriteReg(R3, 0x00000000)  returns 0x00 (0000ms, 22192ms total)
T48EC 21873:812 JLINK_WriteReg(R4, 0x00000000)  returns 0x00 (0000ms, 22192ms total)
T48EC 21873:812 JLINK_WriteReg(R5, 0x00000000)  returns 0x00 (0000ms, 22192ms total)
T48EC 21873:812 JLINK_WriteReg(R6, 0x00000000)  returns 0x00 (0000ms, 22192ms total)
T48EC 21873:812 JLINK_WriteReg(R7, 0x00000000)  returns 0x00 (0000ms, 22192ms total)
T48EC 21873:812 JLINK_WriteReg(R8, 0x00000000)  returns 0x00 (0000ms, 22192ms total)
T48EC 21873:813 JLINK_WriteReg(R9, 0x20000194)  returns 0x00 (0000ms, 22193ms total)
T48EC 21873:813 JLINK_WriteReg(R10, 0x00000000)  returns 0x00 (0000ms, 22193ms total)
T48EC 21873:813 JLINK_WriteReg(R11, 0x00000000)  returns 0x00 (0000ms, 22193ms total)
T48EC 21873:813 JLINK_WriteReg(R12, 0x00000000)  returns 0x00 (0000ms, 22193ms total)
T48EC 21873:813 JLINK_WriteReg(R13 (SP), 0x20001000)  returns 0x00 (0000ms, 22193ms total)
T48EC 21873:813 JLINK_WriteReg(R14, 0x20000001)  returns 0x00 (0000ms, 22193ms total)
T48EC 21873:813 JLINK_WriteReg(R15 (PC), 0x20000120)  returns 0x00 (0000ms, 22193ms total)
T48EC 21873:813 JLINK_WriteReg(XPSR, 0x01000000)  returns 0x00 (0000ms, 22193ms total)
T48EC 21873:813 JLINK_WriteReg(MSP, 0x20001000)  returns 0x00 (0000ms, 22193ms total)
T48EC 21873:813 JLINK_WriteReg(PSP, 0x20001000)  returns 0x00 (0000ms, 22193ms total)
T48EC 21873:813 JLINK_WriteReg(CFBP, 0x00000000)  returns 0x00 (0000ms, 22193ms total)
T48EC 21873:813 JLINK_SetBPEx(Addr = 0x20000000, Type = 0xFFFFFFF2)  returns 0x0000000B (0001ms, 22194ms total)
T48EC 21873:814 JLINK_Go() -- CPU_ReadMem(4 bytes @ 0xE0001000) (0002ms, 22196ms total)
T48EC 21873:816 JLINK_IsHalted()  returns FALSE (0001ms, 22197ms total)
T48EC 21873:821 JLINK_IsHalted() -- CPU_ReadMem(2 bytes @ 0x20000000)  returns TRUE (0004ms, 22200ms total)
T48EC 21873:825 JLINK_ReadReg(R15 (PC))  returns 0x20000000 (0000ms, 22196ms total)
T48EC 21873:825 JLINK_ClrBPEx(BPHandle = 0x0000000B)  returns 0x00 (0000ms, 22196ms total)
T48EC 21873:825 JLINK_ReadReg(R0)  returns 0x00000000 (0000ms, 22196ms total)
T48EC 21873:826 JLINK_WriteMem(0x20000198, 0x0268 Bytes, ...) - Data: 0F 94 FE F7 27 FD 1C 21 07 A8 FE F7 23 FD 23 48 ... -- CPU_WriteMem(616 bytes @ 0x20000198)  returns 0x268 (0008ms, 22204ms total)
T48EC 21873:834 JLINK_WriteMem(0x20000400, 0x0198 Bytes, ...) - Data: 02 60 8A 68 C2 62 0A 68 82 62 98 42 01 D0 A0 42 ... -- CPU_WriteMem(408 bytes @ 0x20000400)  returns 0x198 (0005ms, 22209ms total)
T48EC 21873:839 JLINK_WriteReg(R0, 0x08001800)  returns 0x00 (0000ms, 22209ms total)
T48EC 21873:840 JLINK_WriteReg(R1, 0x00000400)  returns 0x00 (0000ms, 22210ms total)
T48EC 21873:840 JLINK_WriteReg(R2, 0x20000198)  returns 0x00 (0000ms, 22210ms total)
T48EC 21873:840 JLINK_WriteReg(R3, 0x00000000)  returns 0x00 (0000ms, 22210ms total)
T48EC 21873:840 JLINK_WriteReg(R4, 0x00000000)  returns 0x00 (0000ms, 22210ms total)
T48EC 21873:840 JLINK_WriteReg(R5, 0x00000000)  returns 0x00 (0000ms, 22210ms total)
T48EC 21873:840 JLINK_WriteReg(R6, 0x00000000)  returns 0x00 (0000ms, 22210ms total)
T48EC 21873:840 JLINK_WriteReg(R7, 0x00000000)  returns 0x00 (0000ms, 22210ms total)
T48EC 21873:840 JLINK_WriteReg(R8, 0x00000000)  returns 0x00 (0000ms, 22210ms total)
T48EC 21873:840 JLINK_WriteReg(R9, 0x20000194)  returns 0x00 (0000ms, 22210ms total)
T48EC 21873:840 JLINK_WriteReg(R10, 0x00000000)  returns 0x00 (0000ms, 22210ms total)
T48EC 21873:840 JLINK_WriteReg(R11, 0x00000000)  returns 0x00 (0000ms, 22210ms total)
T48EC 21873:841 JLINK_WriteReg(R12, 0x00000000)  returns 0x00 (0000ms, 22211ms total)
T48EC 21873:841 JLINK_WriteReg(R13 (SP), 0x20001000)  returns 0x00 (0000ms, 22211ms total)
T48EC 21873:841 JLINK_WriteReg(R14, 0x20000001)  returns 0x00 (0000ms, 22211ms total)
T48EC 21873:841 JLINK_WriteReg(R15 (PC), 0x20000120)  returns 0x00 (0000ms, 22211ms total)
T48EC 21873:841 JLINK_WriteReg(XPSR, 0x01000000)  returns 0x00 (0000ms, 22211ms total)
T48EC 21873:841 JLINK_WriteReg(MSP, 0x20001000)  returns 0x00 (0000ms, 22211ms total)
T48EC 21873:841 JLINK_WriteReg(PSP, 0x20001000)  returns 0x00 (0000ms, 22211ms total)
T48EC 21873:841 JLINK_WriteReg(CFBP, 0x00000000)  returns 0x00 (0000ms, 22211ms total)
T48EC 21873:842 JLINK_SetBPEx(Addr = 0x20000000, Type = 0xFFFFFFF2)  returns 0x0000000C (0000ms, 22212ms total)
T48EC 21873:842 JLINK_Go() -- CPU_ReadMem(4 bytes @ 0xE0001000) (0003ms, 22215ms total)
T48EC 21873:845 JLINK_IsHalted()  returns FALSE (0000ms, 22215ms total)
T48EC 21873:847 JLINK_IsHalted()  returns FALSE (0000ms, 22215ms total)
T48EC 21873:849 JLINK_IsHalted() -- CPU_ReadMem(2 bytes @ 0x20000000)  returns TRUE (0004ms, 22219ms total)
T48EC 21873:853 JLINK_ReadReg(R15 (PC))  returns 0x20000000 (0000ms, 22215ms total)
T48EC 21873:853 JLINK_ClrBPEx(BPHandle = 0x0000000C)  returns 0x00 (0000ms, 22215ms total)
T48EC 21873:853 JLINK_ReadReg(R0)  returns 0x00000000 (0000ms, 22215ms total)
T48EC 21873:857 JLINK_WriteMem(0x20000198, 0x0268 Bytes, ...) - Data: 24 F4 00 54 44 EA 05 34 08 4D A8 42 02 D0 08 4D ... -- CPU_WriteMem(616 bytes @ 0x20000198)  returns 0x268 (0007ms, 22222ms total)
T48EC 21873:864 JLINK_WriteMem(0x20000400, 0x0198 Bytes, ...) - Data: 06 EB 80 01 08 EB 01 10 B0 FB F5 F0 00 F0 F0 06 ... -- CPU_WriteMem(408 bytes @ 0x20000400)  returns 0x198 (0006ms, 22228ms total)
T48EC 21873:870 JLINK_WriteReg(R0, 0x08001C00)  returns 0x00 (0000ms, 22228ms total)
T48EC 21873:870 JLINK_WriteReg(R1, 0x00000400)  returns 0x00 (0000ms, 22228ms total)
T48EC 21873:870 JLINK_WriteReg(R2, 0x20000198)  returns 0x00 (0000ms, 22228ms total)
T48EC 21873:870 JLINK_WriteReg(R3, 0x00000000)  returns 0x00 (0000ms, 22228ms total)
T48EC 21873:870 JLINK_WriteReg(R4, 0x00000000)  returns 0x00 (0000ms, 22228ms total)
T48EC 21873:870 JLINK_WriteReg(R5, 0x00000000)  returns 0x00 (0000ms, 22228ms total)
T48EC 21873:870 JLINK_WriteReg(R6, 0x00000000)  returns 0x00 (0001ms, 22229ms total)
T48EC 21873:871 JLINK_WriteReg(R7, 0x00000000)  returns 0x00 (0000ms, 22229ms total)
T48EC 21873:871 JLINK_WriteReg(R8, 0x00000000)  returns 0x00 (0000ms, 22229ms total)
T48EC 21873:871 JLINK_WriteReg(R9, 0x20000194)  returns 0x00 (0000ms, 22229ms total)
T48EC 21873:871 JLINK_WriteReg(R10, 0x00000000)  returns 0x00 (0000ms, 22229ms total)
T48EC 21873:871 JLINK_WriteReg(R11, 0x00000000)  returns 0x00 (0000ms, 22229ms total)
T48EC 21873:871 JLINK_WriteReg(R12, 0x00000000)  returns 0x00 (0000ms, 22229ms total)
T48EC 21873:871 JLINK_WriteReg(R13 (SP), 0x20001000)  returns 0x00 (0000ms, 22229ms total)
T48EC 21873:871 JLINK_WriteReg(R14, 0x20000001)  returns 0x00 (0000ms, 22229ms total)
T48EC 21873:871 JLINK_WriteReg(R15 (PC), 0x20000120)  returns 0x00 (0000ms, 22229ms total)
T48EC 21873:871 JLINK_WriteReg(XPSR, 0x01000000)  returns 0x00 (0000ms, 22229ms total)
T48EC 21873:871 JLINK_WriteReg(MSP, 0x20001000)  returns 0x00 (0000ms, 22229ms total)
T48EC 21873:871 JLINK_WriteReg(PSP, 0x20001000)  returns 0x00 (0001ms, 22230ms total)
T48EC 21873:872 JLINK_WriteReg(CFBP, 0x00000000)  returns 0x00 (0000ms, 22230ms total)
T48EC 21873:872 JLINK_SetBPEx(Addr = 0x20000000, Type = 0xFFFFFFF2)  returns 0x0000000D (0000ms, 22230ms total)
T48EC 21873:872 JLINK_Go() -- CPU_ReadMem(4 bytes @ 0xE0001000) (0002ms, 22232ms total)
T48EC 21873:874 JLINK_IsHalted()  returns FALSE (0001ms, 22233ms total)
T48EC 21873:904 JLINK_IsHalted() -- CPU_ReadMem(2 bytes @ 0x20000000)  returns TRUE (0003ms, 22235ms total)
T48EC 21873:907 JLINK_ReadReg(R15 (PC))  returns 0x20000000 (0000ms, 22232ms total)
T48EC 21873:908 JLINK_ClrBPEx(BPHandle = 0x0000000D)  returns 0x00 (0000ms, 22233ms total)
T48EC 21873:908 JLINK_ReadReg(R0)  returns 0x00000000 (0000ms, 22233ms total)
T48EC 21873:908 JLINK_WriteMem(0x20000198, 0x0268 Bytes, ...) - Data: 00 21 40 4A 49 18 42 EB 04 50 CD E9 00 10 12 E0 ... -- CPU_WriteMem(616 bytes @ 0x20000198)  returns 0x268 (0008ms, 22241ms total)
T48EC 21873:916 JLINK_WriteMem(0x20000400, 0x0198 Bytes, ...) - Data: 0D D0 0D 60 09 F1 04 09 67 E1 D9 F8 00 10 EA 17 ... -- CPU_WriteMem(408 bytes @ 0x20000400)  returns 0x198 (0006ms, 22247ms total)
T48EC 21873:922 JLINK_WriteReg(R0, 0x08002000)  returns 0x00 (0000ms, 22247ms total)
T48EC 21873:922 JLINK_WriteReg(R1, 0x00000400)  returns 0x00 (0000ms, 22247ms total)
T48EC 21873:922 JLINK_WriteReg(R2, 0x20000198)  returns 0x00 (0000ms, 22247ms total)
T48EC 21873:922 JLINK_WriteReg(R3, 0x00000000)  returns 0x00 (0000ms, 22247ms total)
T48EC 21873:922 JLINK_WriteReg(R4, 0x00000000)  returns 0x00 (0000ms, 22247ms total)
T48EC 21873:922 JLINK_WriteReg(R5, 0x00000000)  returns 0x00 (0000ms, 22247ms total)
T48EC 21873:922 JLINK_WriteReg(R6, 0x00000000)  returns 0x00 (0000ms, 22247ms total)
T48EC 21873:922 JLINK_WriteReg(R7, 0x00000000)  returns 0x00 (0000ms, 22247ms total)
